/net8 X,/net8 Y,/net10 X,/net10 Y,/net016 X,/net016 Y,/net017 X,/net017 Y
-40,5.007806972991128,-40,4.221862858284808e-09,-40,3.028339148119608e-09,-40,5.007806508764751
-35.2,5.008119382929745,-35.2,4.486407402515047e-09,-35.2,3.181058972432577e-09,-35.2,5.008118926161172
-30.4,5.008438717801546,-30.4,4.841672609157565e-09,-30.4,3.352498228103977e-09,-30.4,5.008438268093058
-25.6,5.008765382479621,-25.6,5.32323371692926e-09,-25.6,3.546373615141232e-09,-25.6,5.008764939310228
-20.8,5.009099819418582,-20.8,5.978218623911656e-09,-20.8,3.767464150584065e-09,-20.8,5.009099382064403
-16,5.009442506216754,-16,6.868273518359033e-09,-16,4.0219744799311e-09,-16,5.009442073620809
-11.2,5.009793958497605,-11.2,8.073080052594355e-09,-11.2,4.318006764752683e-09,-11.2,5.009793529063778
-6.399999999999999,5.010154734000745,-6.399999999999999,9.694478707657346e-09,-6.399999999999999,4.666166089623598e-09,-6.399999999999999,5.01015430527471
-1.6,5.010525437277232,-1.6,1.186125332689571e-08,-1.6,5.080326883780335e-09,-1.6,5.010525005461838
3.2,5.010906725519423,3.2,1.473462880183487e-08,3.2,5.57859119852751e-09,3.2,5.010906284751756
8,5.011299315532838,8,1.851452631573331e-08,8,6.184475384391524e-09,8,5.011298856823837
12.8,5.011703992109121,12.8,2.344661882806704e-08,12.8,6.928360680413841e-09,12.8,5.011703501812652
17.6,5.012121618013255,17.6,2.983021897689289e-08,17.6,7.849251893044097e-09,17.6,5.012121075648717
22.4,5.012553145975192,22.4,3.802702571906779e-08,22.4,8.996887523848256e-09,22.4,5.01255252117429
27.2,5.012999632887609,27.2,4.847074503762018e-08,27.2,1.043424919165084e-08,27.2,5.012998881170392
32,5.013462256930834,32,6.167759260724174e-08,32,1.224051911586925e-08,32,5.013461313936518
36.8,5.013942337974274,36.8,7.825767301865803e-08,36.8,1.451453994896346e-08,36.8,5.013941111677501
41.59999999999999,5.014441362059402,41.59999999999999,9.892722179727478e-08,41.59999999999999,1.737882688232259e-08,41.59999999999999,5.014439722390619
46.39999999999999,5.014961010806796,46.39999999999999,1.245216833181035e-07,46.39999999999999,2.098418837665901e-08,46.39999999999999,5.014958775965281
51.19999999999999,5.015503196872892,51.19999999999999,1.560095882249326e-07,51.19999999999999,2.551500923365304e-08,51.19999999999999,5.015500115471875
55.99999999999999,5.016070106633681,55.99999999999999,1.945071821930505e-07,55.99999999999999,3.119524807728001e-08,55.99999999999999,5.016065834648578
60.79999999999998,5.016663067007491,60.79999999999998,2.412937469845018e-07,60.79999999999998,3.829520349348138e-08,60.79999999999998,5.016657138197272
65.59999999999998,5.017287335507115,65.59999999999998,2.978275455945565e-07,65.59999999999998,4.713909849996251e-08,65.59999999999998,5.017279124463222
70.39999999999998,5.017945105811119,70.39999999999998,3.657623147225042e-07,70.39999999999998,5.811352998766879e-08,70.39999999999998,5.017933780844772
75.19999999999997,5.018640293192558,75.19999999999997,4.469642181536048e-07,75.19999999999997,7.167682831148149e-08,75.19999999999997,5.018624758339175
79.99999999999997,5.019377489056679,79.99999999999997,5.43529169125851e-07,79.99999999999997,8.836936688888435e-08,79.99999999999997,5.019356312541904
84.79999999999997,5.020162092242241,84.79999999999997,6.578004238267143e-07,84.79999999999997,1.088248566192286e-07,84.79999999999997,5.020133419184561
89.59999999999997,5.021000476372937,89.59999999999997,7.923863448955067e-07,89.59999999999997,1.33782655068427e-07,89.59999999999997,5.020961923164583
94.39999999999996,5.021900193294985,94.39999999999996,9.501782287803614e-07,94.39999999999996,1.641011142946055e-07,94.39999999999996,5.021848720854468
99.19999999999996,5.022870220169285,99.19999999999996,1.134368094264051e-06,99.19999999999996,2.007719867609511e-07,99.19999999999996,5.022801982994998
104,5.023921258090816,104,1.348466326416757e-06,104,2.449358989837329e-07,104,5.023831425749512
108.8,5.025066090701293,108.8,1.596319075898651e-06,108.8,2.978989012643001e-07,108.8,5.02494863800653
113.6,5.02632001098366,113.6,1.882125316325301e-06,113.6,3.611500916170175e-07,113.6,5.02616747254095
118.3999999999999,5.027701322496753,118.3999999999999,2.210453472253056e-06,118.3999999999999,4.363803105601987e-07,118.3999999999999,5.027504506318373
123.1999999999999,5.029231917772502,123.1999999999999,2.586257534974431e-06,123.1999999999999,5.255018970075356e-07,123.1999999999999,5.028979570988802
127.9999999999999,5.030937929364736,127.9999999999999,3.014892599002308e-06,127.9999999999999,6.306694939355474e-07,127.9999999999999,5.030616346208192
132.8,5.032852852571238,132.8,3.502129761875481e-06,132.8,7.543018936511225e-07,132.8,5.032445408552865
137.6,5.035008915137548,137.6,4.054170350641764e-06,137.6,8.991049106877731e-07,137.6,5.034495512078497
142.4,5.037451438455991,142.4,4.677659450944452e-06,142.4,1.068095282057777e-06,142.4,5.036807814080675
147.2,5.040230581843706,147.2,5.379698744798346e-06,147.2,1.264625599329711e-06,147.2,5.039427448577599
152,5.043403991105619,152,6.167858684022307e-06,152,1.492410297689456e-06,152,5.042405914814055
156.8,5.047036757719257,156.8,7.050190058604889e-06,156.8,1.755552748163807e-06,156.8,5.045800688556086
161.6,5.051201570537548,161.6,8.035235057450573e-06,161.6,2.058573532340141e-06,161.6,5.049674868355445
166.4,5.055977458238564,166.4,9.132037959609258e-06,166.4,2.40644002008229e-06,166.4,5.054095253511537
171.2,5.061450820194655,171.2,1.035015564761818e-05,171.2,2.804597432034491e-06,171.2,5.059132498321545
176.0000000000001,5.06770650420694,176.0000000000001,1.169966819316516e-05,176.0000000000001,3.259001634135393e-06,176.0000000000001,5.064851187545402
180.8000000000001,5.07483521468011,180.8000000000001,1.319118984135213e-05,180.8000000000001,3.776154009429944e-06,180.8000000000001,5.071316010452682
185.6000000000001,5.082924907878996,185.6000000000001,1.499961570187806,185.6000000000001,4.36313886482904e-06,185.6000000000001,5.078582004240475
190.4000000000001,5.092059474771488,190.4000000000001,1.499956961835438,190.4000000000001,5.027663974868075e-06,190.4000000000001,5.08669209576816
195.2000000000001,5.102307564842415,195.2000000000001,1.499951921885833,195.2000000000001,5.778105041156809e-06,195.2000000000001,5.095664865218561
200,5.113760066021753,200,1.499946422362265,200,6.623555063807299e-06,200,5.105530906212218
