/net10 X,/net10 Y,/net016 X,/net016 Y,/net017 X,/net017 Y,/net8 X,/net8 Y
-40,4.221862679231257e-09,-40,3.028339161587857e-09,-40,2.094869417570749e-08,-40,1.673238123586798e-05
-35.2,4.486407182867712e-09,-35.2,3.181058929338549e-09,-35.2,2.148537328741765e-08,-35.2,1.675348271824764e-05
-30.4,4.841672269388368e-09,-30.4,3.352498128456963e-09,-30.4,2.202735814774409e-08,-30.4,1.677507816252111e-05
-25.6,5.323233147787738e-09,-25.6,3.546373572067043e-09,-25.6,2.25746203262761e-08,-25.6,1.679715362223419e-05
-20.8,5.978217626567157e-09,-20.8,3.767464164062424e-09,-20.8,2.312712838030083e-08,-20.8,1.681969111102368e-05
-16,6.868271960901344e-09,-16,4.021974493403393e-09,-16,2.36848387505297e-08,-16,1.684265984539672e-05
-11.2,8.073077451017341e-09,-11.2,4.318006778198254e-09,-11.2,2.424768489767234e-08,-11.2,1.686600750831179e-05
-6.399999999999999,9.694474292819283e-09,-6.399999999999999,4.666166103004912e-09,-6.399999999999999,2.481556385680148e-08,-6.399999999999999,1.688964600247767e-05
-1.6,1.186124593023497e-08,-1.6,5.08032684053021e-09,-1.6,2.538831786056258e-08,-1.6,1.691343853542002e-05
3.2,1.473461634708359e-08,3.2,5.578591211505975e-09,3.2,2.59657342744586e-08,3.2,1.693719842884786e-05
8,1.851450528952894e-08,8,6.184475396879889e-09,8,2.654754130584323e-08,8,1.696068582080091e-05
12.8,2.344658319975773e-08,12.8,6.928360691992692e-09,12.8,2.713341232194171e-08,12.8,1.698360356121333e-05
17.6,2.983015913992647e-08,17.6,7.849251823332125e-09,17.6,2.772302237441789e-08,17.6,1.700563415336551e-05
22.4,3.802692565675424e-08,22.4,8.996887620364417e-09,22.4,2.831627452649382e-08,22.4,1.702659894571077e-05
27.2,4.847057915569249e-08,27.2,1.043424911307285e-08,27.2,2.891415109605319e-08,27.2,1.704709527585589e-05
32,6.167732016200029e-08,32,1.224051913939861e-08,32,2.952190102520732e-08,32,1.707095814806306e-05
36.8,7.825723023266109e-08,36.8,1.451453995240741e-08,36.8,3.015270975988009e-08,36.8,1.710773460906462e-05
41.59999999999999,9.892651012827198e-08,41.59999999999999,1.737882678915851e-08,41.59999999999999,3.081264845942559e-08,41.59999999999999,1.715965767498784e-05
46.39999999999999,1.245205525932502e-07,46.39999999999999,2.098418834159757e-08,46.39999999999999,3.151562695584673e-08,46.39999999999999,1.723342340552847e-05
51.19999999999999,1.560078126922539e-07,51.19999999999999,2.551500917943766e-08,51.19999999999999,3.228786743355101e-08,51.19999999999999,1.734209385759274e-05
55.99999999999999,1.945044268849739e-07,55.99999999999999,3.119524794639268e-08,55.99999999999999,3.31740262905676e-08,55.99999999999999,1.750725888468824e-05
60.79999999999998,2.412895204319204e-07,60.79999999999998,3.829520335131759e-08,60.79999999999998,3.425359894850015e-08,60.79999999999998,1.776737991101754e-05
65.59999999999998,2.978211359456922e-07,65.59999999999998,4.713909825560762e-08,65.59999999999998,3.566147504536931e-08,65.59999999999998,1.818630011238345e-05
70.39999999999998,3.657527024424138e-07,70.39999999999998,5.811352946211199e-08,70.39999999999998,3.762362363789888e-08,70.39999999999998,1.886866436391982e-05
75.19999999999997,4.469499589149416e-07,75.19999999999997,7.167682731854611e-08,75.19999999999997,4.051374527281162e-08,75.19999999999997,1.998390582075038e-05
79.99999999999997,5.435082390029482e-07,79.99999999999997,8.83693652539915e-08,79.99999999999997,4.494390965422895e-08,79.99999999999997,2.180391943583788e-05
84.79999999999997,6.5777001557412e-07,84.79999999999997,1.088248538713515e-07,84.79999999999997,5.190174830514663e-08,84.79999999999997,2.475871468268776e-05
89.59999999999997,7.923426031567009e-07,89.59999999999997,1.337826500861458e-07,89.59999999999997,6.296465185298146e-08,89.59999999999997,2.952180520141875e-05
94.39999999999996,9.501159090322866e-07,94.39999999999996,1.641011058787778e-07,94.39999999999996,8.062190980025361e-08,94.39999999999996,3.713582114434215e-05
99.19999999999996,1.134280127739183e-06,99.19999999999996,2.00771972475423e-07,99.19999999999996,1.087569068608186e-07,99.19999999999996,4.919658524050477e-05
104,1.348343269234911e-06,104,2.449358752350523e-07,104,1.533601343269387e-07,104,6.811926670854807e-05
108.8,1.596148418268221e-06,108.8,2.97898862073095e-07,108.8,2.235722787460281e-07,108.8,9.751843450761402e-05
113.6,1.881890623479153e-06,113.6,3.61150027861098e-07,113.6,3.331943559610586e-07,113.6,0.0001427435372812101
118.3999999999999,2.210133322595607e-06,118.3999999999999,4.363802081578282e-07,118.3999999999999,5.028515302286134e-07,118.3999999999999,0.0002116220352167954
123.1999999999999,2.585824220332706e-06,123.1999999999999,5.255017341456386e-07,123.1999999999999,7.630621317999034e-07,123.1999999999999,0.0003154726122971573
127.9999999999999,3.014310542045614e-06,127.9999999999999,6.30669238193307e-07,127.9999999999999,1.158547328660826e-06,127.9999999999999,0.0004704568650904491
132.8,3.501353606170117e-06,132.8,7.543014964250207e-07,132.8,1.754223899260101e-06,132.8,0.0006993325124404322
137.6,4.053142666546386e-06,137.6,8.991043006593307e-07,137.6,2.643458126612182e-06,137.6,0.001033639680579365
142.4,4.676308002933279e-06,142.4,1.06809435514681e-06,142.4,3.959327956170605e-06,142.4,0.001516271743193169
147.2,5.377933252335666e-06,147.2,1.264624205660405e-06,147.2,5.889852963520941e-06,147.2,0.002204213982331236
152,6.165567007291939e-06,152,1.492408223589827e-06,152,8.698420699567983e-06,152,0.003170928603507307
156.8,7.04723373216565e-06,156.8,1.755549692365103e-06,156.8,1.275098912485173e-05,156.8,0.004507378714142265
161.6,8.031444088591709e-06,161.6,2.05856907349744e-06,161.6,1.855212430189293e-05,161.6,0.006320046984573572
166.4,9.12720480292398e-06,166.4,2.406433576030345e-06,166.4,2.679260488510702e-05,166.4,0.00872377420519054
171.2,1.03440282585096e-05,171.2,2.804588205151804e-06,171.2,3.841225179438114e-05,171.2,0.01182753988107157
176.0000000000001,1.169194205958715e-05,176.0000000000001,3.258988541854277e-06,176.0000000000001,5.468278583477882e-05,176.0000000000001,0.01571362500572108
180.8000000000001,1.318149888216533e-05,180.8000000000001,3.776135596735904e-06,180.8000000000001,7.731665971536024e-05,180.8000000000001,0.02041557426593233
185.6000000000001,1.482378701800228e-05,185.6000000000001,4.363113193331718e-06,185.6000000000001,0.0001086087148436158,185.6000000000001,0.02590562559470493
190.4000000000001,1.663044212137105e-05,190.4000000000001,5.027628485481205e-06,190.4000000000001,0.0001516186466267275,190.4000000000001,0.03210168865746135
195.2000000000001,1.861366079331912e-05,195.2000000000001,5.7780563858366e-06,195.2000000000001,0.0002104054754884928,195.2000000000001,0.03889431907249669
200,2.07862167917942e-05,200,6.623488900559925e-06,200,0.0002917817598860452,200,0.04653287589029141
