/net8 X,/net8 Y,/net10 X,/net10 Y,/net016 X,/net016 Y,/net017 X,/net017 Y
-40,1.673238124042981e-05,-40,4.221862704740879e-09,-40,3.028339143939508e-09,-40,2.094869412928083e-08
-35.2,1.675348271630954e-05,-35.2,4.486407208377333e-09,-35.2,3.181058968275818e-09,-35.2,2.148537320682379e-08
-30.4,1.677507817398815e-05,-30.4,4.841672237016516e-09,-30.4,3.35249822396612e-09,-30.4,2.202735819823751e-08
-25.6,1.679715364059851e-05,-25.6,5.323233173269012e-09,-25.6,3.546373554458017e-09,-25.6,2.257462032086259e-08
-20.8,1.681969113692361e-05,-20.8,5.978217652048431e-09,-20.8,3.767464146453398e-09,-20.8,2.31271283766553e-08
-16,1.684265987709961e-05,-16,6.868271928583387e-09,-16,4.021974475794366e-09,-16,2.368483874795509e-08
-11.2,1.686600754501205e-05,-11.2,8.073077418699388e-09,-11.2,4.318006760589228e-09,-11.2,2.42476850627118e-08
-6.399999999999999,1.68896460402319e-05,-6.399999999999999,9.694474260501331e-09,-6.399999999999999,4.666166141906689e-09,-6.399999999999999,2.481556400491758e-08
-1.6,1.691343860377821e-05,-1.6,1.186124589791702e-08,-1.6,5.080326879431987e-09,-1.6,2.538831790348176e-08
3.2,1.693719854915549e-05,3.2,1.473461631476564e-08,3.2,5.578591250407749e-09,3.2,2.596573460808381e-08
8,1.696068603957733e-05,8,1.851450519952822e-08,8,6.184475435782791e-09,8,2.654754181382329e-08
12.8,1.698360397182563e-05,12.8,2.344658328274171e-08,12.8,6.928360674427752e-09,12.8,2.713341271137265e-08
17.6,1.700563491924866e-05,17.6,2.983015910762727e-08,17.6,7.84925191868179e-09,17.6,2.772302330968037e-08
22.4,1.702660038469004e-05,22.4,3.802692562445506e-08,22.4,8.99688754637061e-09,22.4,2.831627611855483e-08
27.2,1.704709773387377e-05,27.2,4.847057918099712e-08,27.2,1.043424915195548e-08,27.2,2.891415409653229e-08
32,1.707096132166436e-05,32,6.167732018730492e-08,32,1.224051906542311e-08,32,2.952190465398447e-08
36.8,1.710773694574923e-05,36.8,7.825723020039723e-08,36.8,1.451453999127226e-08,36.8,3.015271257001068e-08
41.59999999999999,1.715966096092763e-05,41.59999999999999,9.892651015355935e-08,41.59999999999999,1.737882677161251e-08,41.59999999999999,3.081265225824146e-08
46.39999999999999,1.723342476920987e-05,46.39999999999999,1.245205525610025e-07,46.39999999999999,2.098418843685778e-08,46.39999999999999,3.151562875668375e-08
51.19999999999999,1.734209551442497e-05,51.19999999999999,1.560078127175257e-07,51.19999999999999,2.551500921830226e-08,51.19999999999999,3.228786934875691e-08
55.99999999999999,1.750726148649644e-05,55.99999999999999,1.945044268527399e-07,55.99999999999999,3.119524798525872e-08,55.99999999999999,3.317402973154139e-08
60.79999999999998,1.776738429705803e-05,60.79999999999998,2.412895204571777e-07,60.79999999999998,3.829520333380522e-08,60.79999999999998,3.425360483644749e-08
65.59999999999998,1.818630776766091e-05,65.59999999999998,2.978211359709496e-07,65.59999999999998,4.713909823809525e-08,65.59999999999998,3.566148563547779e-08
70.39999999999998,1.886867791847444e-05,70.39999999999998,3.657527024102087e-07,70.39999999999998,5.811352950096456e-08,70.39999999999998,3.76236423064387e-08
75.19999999999997,1.998392999803319e-05,75.19999999999997,4.469499588827365e-07,75.19999999999997,7.167682735739865e-08,75.19999999999997,4.051377945370676e-08
79.99999999999997,2.180396206706351e-05,79.99999999999997,5.435082390281809e-07,79.99999999999997,8.836936529284402e-08,79.99999999999997,4.494397066493983e-08
84.79999999999997,2.475878901265672e-05,84.79999999999997,6.577700155993525e-07,84.79999999999997,1.088248537975179e-07,84.79999999999997,5.190185651066365e-08
89.59999999999997,2.952193316287064e-05,89.59999999999997,7.923426031819331e-07,89.59999999999997,1.337826501249847e-07,89.59999999999997,6.296484115473618e-08
94.39999999999996,3.713603837805514e-05,94.39999999999996,9.501159090575189e-07,94.39999999999996,1.641011059176186e-07,94.39999999999996,8.062223625686522e-08
99.19999999999996,4.919694786683158e-05,99.19999999999996,1.134280127764414e-06,99.19999999999996,2.007719725142638e-07,99.19999999999996,1.087574600090409e-07
104,6.811986211092235e-05,104,1.348343269202762e-06,104,2.44935875217575e-07,104,1.533610571032702e-07
108.8,9.751939453647767e-05,108.8,1.596148418293443e-06,108.8,2.978988620556177e-07,108.8,2.235737898110214e-07
113.6,0.0001427450575095422,113.6,1.881890623389652e-06,113.6,3.611500278436207e-07,113.6,3.331967869564727e-07
118.3999999999999,0.0002116243993101929,118.3999999999999,2.210133322563459e-06,118.3999999999999,4.363802081403509e-07,118.3999999999999,5.02855370669857e-07
123.1999999999999,0.0003154762227927105,123.1999999999999,2.585824220300558e-06,123.1999999999999,5.255017341281616e-07,123.1999999999999,7.630680911843916e-07
127.9999999999999,0.0004704622808283055,127.9999999999999,3.0143105420708e-06,127.9999999999999,6.306692382321193e-07,127.9999999999999,1.158556415631411e-06
132.8,0.0006993404914183118,132.8,3.501353606195303e-06,132.8,7.543014965201145e-07,132.8,1.754237518813195e-06
137.6,0.001033651225742215,137.6,4.053142666571572e-06,137.6,8.991043006981464e-07,137.6,2.643478196535209e-06
142.4,0.001516288143746655,142.4,4.676308002958463e-06,142.4,1.068094355185626e-06,142.4,3.959357042141549e-06
147.2,0.002204236837457276,147.2,5.37793325236085e-06,147.2,1.264624205586687e-06,147.2,5.889894418051687e-06
152,0.003170959801420431,152,6.165567007317123e-06,152,1.492408223628634e-06,152,8.698478781743109e-06
156.8,0.004507420321479209,156.8,7.047233732190834e-06,156.8,1.755549692291397e-06,156.8,1.275106904612882e-05
161.6,0.006320100967479054,161.6,8.031444088616893e-06,161.6,2.058569073536243e-06,161.6,1.855223206631622e-05
166.4,0.008723841857250609,166.4,9.12720480294916e-06,166.4,2.406433576069151e-06,166.4,2.679274667530362e-05
171.2,0.01182762073503339,171.2,1.034402825847751e-05,171.2,2.804588205134368e-06,171.2,3.841243225077432e-05
176.0000000000001,0.01571371499834275,176.0000000000001,1.169194205955507e-05,176.0000000000001,3.258988541893088e-06,176.0000000000001,5.468300417168689e-05
180.8000000000001,0.02041566194048723,180.8000000000001,1.318149888213326e-05,180.8000000000001,3.776135596718483e-06,180.8000000000001,7.731689938653045e-05
185.6000000000001,0.02590568468120152,185.6000000000001,1.482378701797021e-05,185.6000000000001,4.363113193314341e-06,185.6000000000001,0.0001086089191509909
190.4000000000001,0.03210166020173056,190.4000000000001,1.663044212133898e-05,190.4000000000001,5.027628485520071e-06,190.4000000000001,0.0001516186546023319
195.2000000000001,0.03889406268607479,195.2000000000001,1.86136607933443e-05,195.2000000000001,5.778056385875514e-06,195.2000000000001,0.0002104048387591024
200,0.04653200412618843,200,2.078621679176215e-05,200,6.623488900542668e-06,200,0.0002917790875491575
