/net8 X,/net8 Y,/net10 X,/net10 Y,/net016 X,/net016 Y,/net017 X,/net017 Y
-40,5.020141978312759,-40,4.2218628973893e-09,-40,3.02833915043873e-09,-40,5.020141770899656
-35.2,5.020695505024693,-35.2,4.48640744161914e-09,-35.2,3.1810589747517e-09,-35.2,5.020695309958848
-30.4,5.021257012118935,-30.4,4.841672590380188e-09,-30.4,3.352498230423102e-09,-30.4,5.021256828614137
-25.6,5.021827095673198,-25.6,5.323233813857712e-09,-25.6,3.546373617460356e-09,-25.6,5.021826922823124
-20.8,5.022406507236892,-20.8,5.978218605188783e-09,-20.8,3.767464152903187e-09,-20.8,5.022406343929532
-16,5.022996168127564,-16,6.86827355743539e-09,-16,4.021974482250222e-09,-16,5.022996012919263
-11.2,5.023597192154652,-11.2,8.073080091670709e-09,-11.2,4.318006767071806e-09,-11.2,5.023597043059818
-6.399999999999999,5.024210910915405,-6.399999999999999,9.694478688983479e-09,-6.399999999999999,4.666166091942541e-09,-6.399999999999999,5.024210765079996
-1.6,5.024838903683051,-1.6,1.186125330822185e-08,-1.6,5.080326773101093e-09,-1.6,5.024838756895225
3.2,5.02548303269503,3.2,1.4734628783161e-08,3.2,5.578591200824439e-09,3.2,5.025482878661693
8,5.026145483301728,8,1.851452641242448e-08,8,6.184475386687183e-09,8,5.026145312576063
12.8,5.026828812157481,12.8,2.344661880943539e-08,12.8,6.928360682708948e-09,12.8,5.026828610591371
17.6,5.027536004712697,17.6,2.983021895826114e-08,17.6,7.849251895337901e-09,17.6,5.027535751265551
22.4,5.028270545101019,22.4,3.802702570043605e-08,22.4,8.996887526139064e-09,22.4,5.028270208767896
27.2,5.029036501203383,27.2,4.847074501898843e-08,27.2,1.043424919393473e-08,27.2,5.029036036759772
32,5.02983862719929,32,6.167759258861e-08,32,1.224051911813945e-08,32,5.029837969388536
36.8,5.030682487107513,36.8,7.825767311516276e-08,36.8,1.451453989478108e-08,36.8,5.030681542797547
41.59999999999999,5.031574603794873,41.59999999999999,9.892722177867651e-08,41.59999999999999,1.737882688448401e-08,41.59999999999999,5.031573241513704
46.39999999999999,5.032522637876596,46.39999999999999,1.245216832995052e-07,46.39999999999999,2.098418837866769e-08,46.39999999999999,5.03252067400142
51.19999999999999,5.033535601316065,51.19999999999999,1.560095882063339e-07,51.19999999999999,2.551500923532913e-08,51.19999999999999,5.033532782033883
55.99999999999999,5.034624110031331,55.99999999999999,1.945071822319562e-07,55.99999999999999,3.119524802184617e-08,55.99999999999999,5.034620088007735
60.79999999999998,5.035800679817205,60.79999999999998,2.412937469559703e-07,60.79999999999998,3.829520354203419e-08,60.79999999999998,5.035794984302203
65.59999999999998,5.037080067222881,65.59999999999998,2.978275456234737e-07,65.59999999999998,4.713909854567841e-08,65.59999999999998,5.037072066084483
70.39999999999998,5.038479654702897,70.39999999999998,3.657623147123879e-07,70.39999999999998,5.811352996773275e-08,70.39999999999998,5.038468506607224
75.19999999999997,5.040019873657164,75.19999999999997,4.469642182175604e-07,75.19999999999997,7.167682825325365e-08,75.19999999999997,5.040004468298212
79.99999999999997,5.041721929388682,79.99999999999997,5.435291691323672e-07,79.99999999999997,8.83693668684268e-08,79.99999999999997,5.04170081301152
84.79999999999997,5.043618893952685,84.79999999999997,6.578004238332305e-07,84.79999999999997,1.088248566183128e-07,84.79999999999997,5.043590178739829
89.59999999999997,5.0457404882398,89.59999999999997,7.923863448446087e-07,89.59999999999997,1.33782655052137e-07,89.59999999999997,5.045701739111383
94.39999999999996,5.0481236110137,94.39999999999996,9.501782287294637e-07,94.39999999999996,1.641011142534684e-07,94.39999999999996,5.04807170867351
99.19999999999996,5.050810033536893,99.19999999999996,1.134368094270544e-06,99.19999999999996,2.007719865729186e-07,99.19999999999996,5.050741007204762
104,5.05384635544045,104,1.348466326423251e-06,104,2.449358987076181e-07,104,5.053755179259013
108.8,5.057283692385966,108.8,1.596319075905144e-06,108.8,2.978989007811483e-07,108.8,5.057164037648874
113.6,5.06117704379122,113.6,1.882125316331793e-06,113.6,3.611500908368096e-07,113.6,5.061020977174258
118.3999999999999,5.06558433333938,118.3999999999999,2.210453472202197e-06,118.3999999999999,4.363803092016205e-07,118.3999999999999,5.06538194897805
123.1999999999999,5.070571777372609,123.1999999999999,2.586257535006965e-06,123.1999999999999,5.255018944997922e-07,123.1999999999999,5.070310746859834
127.9999999999999,5.07618666768515,127.9999999999999,3.014892598957964e-06,127.9999999999999,6.306694896748779e-07,127.9999999999999,5.075851695582592
132.8,5.082493522121721,132.8,3.502129761920107e-06,132.8,7.543018862616994e-07,132.8,5.082065677089632
137.6,5.089548156202031,137.6,4.05417035068639e-06,137.6,8.99104898350867e-07,137.6,5.089004063895919
142.4,5.097402135142634,142.4,4.677659450934642e-06,142.4,1.068095261489238e-06,142.4,5.096713000993607
147.2,5.106102127595442,147.2,5.379698744766174e-06,147.2,1.264625565396058e-06,147.2,5.105232560782983
152,5.11567782736847,152,6.167858683971393e-06,152,1.49241024258077e-06,152,5.114584434005375
156.8,5.126196854126738,156.8,7.05019005860161e-06,156.8,1.755552659544347e-06,156.8,5.124826523466622
161.6,5.137640610817849,161.6,8.035235057435095e-06,161.6,2.058573391464741e-06,161.6,5.135928515725306
166.4,5.150064317288122,166.4,9.13203795965049e-06,166.4,2.406439798507858e-06,166.4,5.147931418709694
171.2,5.163480301056207,171.2,1.035015564764773e-05,171.2,2.804597087196302e-06,171.2,5.160830388248141
176.0000000000001,5.17786121762832,176.0000000000001,1.169966819316251e-05,176.0000000000001,3.259001102677239e-06,176.0000000000001,5.174577326309253
180.8000000000001,5.193204814987786,180.8000000000001,1.319118984134951e-05,180.8000000000001,3.776153198529087e-06,180.8000000000001,5.189144798777223
185.6000000000001,5.209476246518099,185.6000000000001,1.499961570187806,185.6000000000001,4.363137639438936e-06,185.6000000000001,5.204467418192452
190.4000000000001,5.226617889841304,190.4000000000001,1.499956961835438,190.4000000000001,5.027662140294699e-06,190.4000000000001,5.220450455468521
195.2000000000001,5.244544429573502,195.2000000000001,1.499951921885833,195.2000000000001,5.778102319714489e-06,195.2000000000001,5.236963487986737
200,5.263193555576033,200,1.499946422362265,200,6.623551062679243e-06,200,5.253889122135106
