/net8 X,/net8 Y,/net10 X,/net10 Y,/net016 X,/net016 Y,/net017 X,/net017 Y
-40,5.006625876697584,-40,4.221862864736348e-09,-40,3.028339180197506e-09,-40,5.00662541810973
-35.2,5.00665503235679,-35.2,4.486407408966586e-09,-35.2,3.181058891338355e-09,-35.2,5.006654582887005
-30.4,5.006685585600311,-30.4,4.841672615609104e-09,-30.4,3.352498203582555e-09,-30.4,5.006685144988559
-25.6,5.006718577588839,-25.6,5.323233723380798e-09,-25.6,3.54637359061981e-09,-25.6,5.006718145446077
-20.8,5.006754861331352,-20.8,5.978218630363193e-09,-20.8,3.767464182608442e-09,-20.8,5.006754437060341
-16,5.006795121556041,-16,6.86827352481057e-09,-16,4.021974511955478e-09,-16,5.006794704221784
-11.2,5.006839900176675,-11.2,8.07308005904589e-09,-11.2,4.318006796778075e-09,-11.2,5.006839488301288
-6.399999999999999,5.006889620687645,-6.399999999999999,9.694478714108883e-09,-6.399999999999999,4.666166121648803e-09,-6.399999999999999,5.006889211932458
-1.6,5.006944610817371,-1.6,1.186125333334725e-08,-1.6,5.080326802807356e-09,-1.6,5.006944201499847
3.2,5.007005122723267,3.2,1.473462880828641e-08,3.2,5.578591230530701e-09,3.2,5.007004707096079
8,5.00707135064662,8,1.851452632218485e-08,8,6.184475416394578e-09,8,5.00707091984001
12.8,5.007143446163763,12.8,2.344661883451858e-08,12.8,6.928360655949642e-09,12.8,5.00714298665841
17.6,5.007221531211466,17.6,2.983021898334432e-08,17.6,7.849251868578602e-09,17.6,5.007221022666489
22.4,5.007305709295728,22.4,3.802702566789728e-08,22.4,8.996887555827994e-09,22.4,5.00730512150326
27.2,5.007396074935865,27.2,4.847074498644966e-08,27.2,1.043424911074727e-08,27.2,5.007395363608502
32,5.00749272202278,32,6.167759261365709e-08,32,1.224051914781012e-08,32,5.007491823041383
36.8,5.007595751042644,36.8,7.825767302507336e-08,36.8,1.451453992445308e-08,36.8,5.007594572698086
41.59999999999999,5.007705275561669,41.59999999999999,9.892722180369008e-08,41.59999999999999,1.737882680133293e-08,41.59999999999999,5.00770368821398
46.39999999999999,5.007821428137721,46.39999999999999,1.245216833245188e-07,46.39999999999999,2.098418840832141e-08,46.39999999999999,5.007819250588765
51.19999999999999,5.007944365906793,51.19999999999999,1.560095882313479e-07,51.19999999999999,2.551500926498152e-08,51.19999999999999,5.007941347638262
55.99999999999999,5.008074275721506,55.99999999999999,1.945071821994658e-07,55.99999999999999,3.119524805149846e-08,55.99999999999999,5.008070073989269
60.79999999999998,5.008211379351148,60.79999999999998,2.412937469809706e-07,60.79999999999998,3.829520357168635e-08,60.79999999999998,5.008205529952678
65.59999999999998,5.008354949246958,65.59999999999998,2.978275455910242e-07,65.59999999999998,4.713909857599781e-08,65.59999999999998,5.008346829490952
70.39999999999998,5.008507278652219,70.39999999999998,3.657623147189719e-07,70.39999999999998,5.811353000282911e-08,70.39999999999998,5.008496061507615
75.19999999999997,5.008667726561452,75.19999999999997,4.469642181500726e-07,75.19999999999997,7.167682826105578e-08,75.19999999999997,5.008652323193758
79.99999999999997,5.008836694184296,79.99999999999997,5.435291691223189e-07,79.99999999999997,8.836936687623109e-08,79.99999999999997,5.008815684077542
84.79999999999997,5.009014640508767,84.79999999999997,6.578004238231822e-07,84.79999999999997,1.088248566261204e-07,84.79999999999997,5.008986186684967
89.59999999999997,5.009202076886321,89.59999999999997,7.923863448919745e-07,89.59999999999997,1.337826550599465e-07,89.59999999999997,5.009163824339003
94.39999999999996,5.009399562307479,94.39999999999996,9.501782287768293e-07,94.39999999999996,1.641011142612817e-07,94.39999999999996,5.009348517762991
99.19999999999996,5.009607693610272,99.19999999999996,1.134368094260519e-06,99.19999999999996,2.00771986637068e-07,99.19999999999996,5.009540084989956
104,5.009827087930187,104,1.348466326470605e-06,104,2.449358987154672e-07,104,5.009738202414661
108.8,5.010058354212369,108.8,1.596319075837757e-06,108.8,2.978989008453431e-07,108.8,5.009942354718571
113.6,5.010302049759136,113.6,1.882125316264406e-06,113.6,3.611500908447655e-07,113.6,5.010151771069359
118.3999999999999,5.010558616115199,118.3999999999999,2.210453472249514e-06,118.3999999999999,4.363803092096986e-07,118.3999999999999,5.010365344039669
123.1999999999999,5.010828287255085,123.1999999999999,2.586257534970889e-06,123.1999999999999,5.255018945232524e-07,123.1999999999999,5.010581527521607
127.9999999999999,5.011110963755329,127.9999999999999,3.014892598998766e-06,127.9999999999999,6.306694896805538e-07,127.9999999999999,5.010798210769998
132.8,5.011406994692289,132.8,3.502129761871939e-06,132.8,7.543018863093931e-07,132.8,5.011013519610629
137.6,5.01171313403167,137.6,4.054170350638222e-06,137.6,8.991048983449739e-07,137.6,5.011221819773905
142.4,5.012027876623118,142.4,4.677659450943783e-06,142.4,1.068095261488835e-06,142.4,5.011419137978425
147.2,5.01234733609868,147.2,5.379698744797677e-06,147.2,1.26462556541135e-06,147.2,5.011599196102569
152,5.012665656953671,152,6.167858684021638e-06,152,1.492410242593633e-06,152,5.011754061523127
156.8,5.012974207314989,156.8,7.050190058594546e-06,156.8,1.755552659625684e-06,156.8,5.011873736438498
161.6,5.013261432752417,161.6,8.035235057440231e-06,161.6,2.058573391414415e-06,161.6,5.011946593739149
166.4,5.013511285555812,166.4,9.132037959656192e-06,166.4,2.406439798518372e-06,166.4,5.011958712171413
171.2,5.013704161913131,171.2,1.035015564760025e-05,171.2,2.804597087230497e-06,171.2,5.011896140902769
176.0000000000001,5.013808831028036,176.0000000000001,1.169966819315585e-05,176.0000000000001,3.259001102749514e-06,176.0000000000001,5.011738864568123
180.8000000000001,5.013793766390193,180.8000000000001,1.319118984134282e-05,180.8000000000001,3.776153198615547e-06,180.8000000000001,5.011474807983931
185.6000000000001,5.013619882582985,185.6000000000001,1.499961570187806,185.6000000000001,4.363137639433226e-06,185.6000000000001,5.011096506035918
190.4000000000001,5.013245268896918,190.4000000000001,1.499956961835438,190.4000000000001,5.027662140397656e-06,190.4000000000001,5.01061067144428
195.2000000000001,5.012628905404933,195.2000000000001,1.499951921885833,195.2000000000001,5.778102319813907e-06,195.2000000000001,5.010047255635871
200,5.011758583166842,200,1.499946422362265,200,6.62355106285506e-06,200,5.009489354738577
